../build/src/gnucap -a ../gnucap-icarus/gnucap-icarus.so -c verilog netlist-dkc.sp </dev/null  -- gnucap-icarus as plugin
Gnucap 2009.02.02 RCS 26.109
The Gnu Circuit Analysis Package
Never trust any version less than 1.0
Copyright 1982-2007, Albert Davis
Gnucap comes with ABSOLUTELY NO WARRANTY
This is free software, and you are welcome
to redistribute it under the terms of 
the GNU General Public License, version 3 or later.
See the file "COPYING" for details.
transient: already installed, replacing
stashing as transient:0
#Time       v(gnd!)    v(n1)      v(n2)      v(n3)      v(n4)      v(n5)      v(vdd!)   
0.0 IN ->z
 0.         0.         0.         3.         8.3195n    3.         8.3195n    3.        
0.0 IN ->0
 10.p       1.f        4.f        3.         86.259n    3.        -4.9111n    3.        
 20.p       1.f       -3.f        3.        -104.63n    3.         30.397n    3.        
 30.p       1.f        5.f        3.         166.3n     3.        -22.829n    3.        
 40.p       2.f       -2.f        3.        -222.43n    3.         49.333n    3.        
 50.p       2.f        5.f        3.         344.2n     3.        -42.507n    3.        
 60.p       3.f        0.         3.        -489.26n    3.         65.709n    3.        
 70.p       4.f        8.f        3.         748.04n    3.        -48.294n    3.        
 80.p       4.f       -1.f        3.        -1.1008u    3.         47.287n    3.        
 90.p       5.f        10.f       3.         1.6778u    3.         18.988n    3.        
10.0 OUT->1 IN=0
 100.p      5.f       -2.f        3.        -2.517u     3.        -111.72n    3.        
 110.p      6.f        3.         3.1891     0.032054   3.0069     0.0018766  3.        
 120.p      10.f       3.         1.8662    -0.21965    2.9483    -0.016599   3.        
 130.p      13.f       3.         0.8421    -0.065658   3.0134     0.015098   3.        
 140.p      18.f       3.         0.35414    0.44523    3.1143     0.020995   3.        
 150.p      16.f       3.         0.20288    1.1217     3.1437    -0.00449    3.        
 160.p      15.f       3.         0.14361    1.7139     2.9057    -0.061843   3.        
 170.p      17.f       3.         0.096887   2.1211     2.3883    -0.12892    3.        
 180.p      16.f       3.         0.059309   2.3605     1.689     -0.11259    3.        
 190.p      18.f       3.         0.037918   2.5169     1.0102     0.20511    3.        
 200.p      18.f       3.         0.034027   2.6776     0.63966    1.2916     3.        
19.9 IN ->1
 210.p      15.f       3.         0.026173   2.7931     0.41664    2.3944     3.        
 220.p      20.f       3.         0.014604   2.8523     0.1981     2.8598     3.        
 230.p      18.f       3.         0.010747   2.9014     0.066447   2.9476     3.        
 240.p      21.f       3.         0.0090832  2.9447     0.026504   2.9854     3.        
 250.p      20.f       3.         0.0068587  2.9702     0.010628   2.9942     3.        
 260.p      19.f       3.         0.004928   2.9845     0.0049183  2.9979     3.        
 270.p      16.f       3.         0.0032708  2.9918     0.0022901  2.999      3.        
 280.p      18.f       3.         0.0022576  2.9959     0.0019344  2.9998     3.        
 290.p      17.f       3.         0.0013107  2.9977     923.99u    2.9986     3.        
29.9 OUT->0 IN=1
 300.p      16.f       3.         0.0014738  2.9963     0.0013666  3.0004     3.        
 310.p      18.f       19.124n   -0.40705    2.9141    -0.01498    2.9923     3.        
 320.p      3.f       -17.735n    0.53429    3.1692     0.042959   3.0248     3.        
 330.p     -4.f       -17.87n     1.3359     3.1487    -0.0041472  2.987      3.        
 340.p     -4.f       -18.048n    1.9187     2.7987    -0.060034   2.9795     3.        
 350.p     -3.f       -18.207n    2.2628     2.1663    -0.12071    2.9776     3.        
 360.p     -1.f        18.487n    2.4529     1.416     -0.086256   3.0146     3.        
 370.p      1.f       -18.297n    2.5819     0.75617    0.17332    3.104      3.        
 380.p      1.f        18.488n    2.7117     0.37349    0.69501    3.2132     3.        
 390.p      2.f       -18.317n    2.8274     0.21918    1.2838     3.0433     3.        
 400.p      0.        -18.349n    2.8993     0.13802    1.7304     2.3696     3.        
40.7 IN ->0
 410.p     -2.f       -18.363n    2.9388     0.075337   1.9629     1.1378     3.        
 420.p     -5.f        18.407n    2.9686     0.062655   2.2211     0.23689    3.        
 430.p     -2.f       -18.38n     2.9866     0.069408   2.548      0.05072    3.        
 440.p     -2.f        18.385n    2.9898     0.050174   2.7672     0.046516   3.        
 450.p     -2.f       -18.384n    2.9906     0.027479   2.8756     0.015018   3.        
 460.p     -1.f        18.389n    2.9926     0.015639   2.9376     0.011883   3.        
 470.p     -2.f       -18.382n    2.9936     0.0079158  2.9673     0.0040412  3.        
 480.p     -3.f        18.387n    2.9957     0.004485   2.9838     0.0030582  3.        
 490.p     -3.f       -18.381n    2.9961     0.0021532  2.9915     0.0010785  3.        
 500.p     -2.f        18.383n    2.9969     0.0028275  2.9961     952.7u     3.        
50.7 OUT->1 IN=0
 510.p     -1.f       -18.38n     2.9975     712.98u    2.9976     63.639u    3.        
 520.p      2.f        3.         3.1858     0.033583   3.0049     0.0032456  3.        
 530.p     -1.f        3.         1.863     -0.219      2.9468    -0.016924   3.        
 540.p      6.f        3.         0.84      -0.064346   3.0129     0.015267   3.        
 550.p      18.f       3.         0.35345    0.44749    3.1142     0.021062   3.        
 560.p      23.f       3.         0.20266    1.124      3.1432    -0.0046323  3.        
 570.p      21.f       3.         0.14347    1.7156     2.9043    -0.062023   3.        
 580.p      26.f       3.         0.096736   2.1221     2.386     -0.12916    3.        
 590.p      23.f       3.         0.059209   2.3611     1.6864    -0.11208    3.        
 600.p      21.f       3.         0.037882   2.5175     1.0083     0.20747    3.        
 610.p      26.f       3.         0.034014   2.6781     0.63886    1.2964     3.        
60.9 IN ->1
 620.p      25.f       3.         0.026134   2.7933     0.41583    2.3973     3.        
 630.p      29.f       3.         0.014579   2.8524     0.1974     2.8605     3.        
 640.p      29.f       3.         0.010745   2.9015     0.066201   2.9478     3.        
 650.p      30.f       3.         0.0090727  2.9448     0.026418   2.9855     3.        
 660.p      28.f       3.         0.006854   2.9703     0.010596   2.9942     3.        
 670.p      28.f       3.         0.0049182  2.9845     0.0049048  2.9979     3.        
 680.p      28.f       3.         0.0032696  2.9919     0.0022846  2.999      3.        
 690.p      28.f       3.         0.0022503  2.9959     0.0019287  2.9998     3.        
 700.p      29.f       3.         0.0013128  2.9977     922.47u    2.9986     3.        
70.9 OUT->0 IN=1
 710.p      31.f       3.         0.0014651  2.9963     0.0013627  3.0004     3.        
 720.p      31.f       743.78p   -0.40704    2.9141    -0.01498    2.9923     3.        
 730.p      1.f        646.14p    0.5343     3.1692     0.042958   3.0248     3.        
 740.p     -2.f        510.5p     1.3359     3.1487    -0.004148   2.987      3.        
 750.p     -4.f        332.97p    1.9187     2.7987    -0.060034   2.9795     3.        
 760.p     -1.f        174.18p    2.2628     2.1663    -0.12071    2.9776     3.        
 770.p     -2.f        106.45p    2.4529     1.4159    -0.086254   3.0146     3.        
 780.p      0.         84.01p     2.5819     0.75617    0.17333    3.104      3.        
 790.p     -1.f        107.53p    2.7117     0.37349    0.69502    3.2132     3.        
 800.p     -2.f        63.363p    2.8274     0.21918    1.2838     3.0433     3.        
 810.p     -3.f        32.069p    2.8993     0.13802    1.7304     2.3696     3.        
81.7 IN ->0
 820.p     -7.f        17.833p    2.9388     0.075337   1.9629     1.1377     3.        
 830.p     -6.f        26.111p    2.9686     0.062655   2.2211     0.23688    3.        
 840.p     -6.f        560.f      2.9866     0.069408   2.548      0.050721   3.        
 850.p     -6.f        4.126p     2.9898     0.050173   2.7672     0.046515   3.        
 860.p     -4.f       -2.991p     2.9906     0.027479   2.8756     0.015018   3.        
 870.p     -4.f        8.301p     2.9926     0.015639   2.9376     0.011883   3.        
 880.p     -3.f       -893.f      2.9936     0.0079157  2.9673     0.0040412  3.        
 890.p     -4.f        6.694p     2.9957     0.0044849  2.9838     0.0030582  3.        
 900.p     -1.f        52.f       2.9961     0.0021531  2.9915     0.0010785  3.        
 910.p     -2.f        2.374p     2.9969     0.0028275  2.9961     952.68u    3.        
91.7 OUT->1 IN=0
 920.p      0.         960.f      2.9975     712.97u    2.9976     63.64u     3.        
 930.p      1.f        3.         3.1858     0.033583   3.0049     0.0032456  3.        
 940.p     -3.f        3.         1.863     -0.219      2.9468    -0.016924   3.        
 950.p      4.f        3.         0.84      -0.064346   3.0129     0.015267   3.        
 960.p      12.f       3.         0.35345    0.44749    3.1142     0.021062   3.        
 970.p      10.f       3.         0.20266    1.124      3.1432    -0.0046323  3.        
 980.p      12.f       3.         0.14347    1.7156     2.9043    -0.062023   3.        
 990.p      15.f       3.         0.096736   2.1221     2.386     -0.12916    3.        
 1.n        11.f       3.         0.059209   2.3611     1.6864    -0.11208    3.        
 1.01n      12.f       3.         0.037882   2.5175     1.0083     0.20747    3.        
 1.02n      16.f       3.         0.034014   2.6781     0.63886    1.2964     3.        
101.9 IN ->1
 1.03n      17.f       3.         0.026134   2.7933     0.41583    2.3973     3.        
 1.04n      18.f       3.         0.014579   2.8524     0.1974     2.8605     3.        
 1.05n      19.f       3.         0.010745   2.9015     0.066201   2.9478     3.        
 1.06n      21.f       3.         0.0090727  2.9448     0.026418   2.9855     3.        
 1.07n      21.f       3.         0.006854   2.9703     0.010596   2.9942     3.        
 1.08n      20.f       3.         0.0049182  2.9845     0.0049048  2.9979     3.        
 1.09n      20.f       3.         0.0032696  2.9919     0.0022846  2.999      3.        
 1.1n       20.f       3.         0.0022503  2.9959     0.0019288  2.9998     3.        
 1.11n      21.f       3.         0.0013128  2.9977     922.47u    2.9986     3.        
111.9 OUT->0 IN=1
 1.12n      21.f       3.         0.0014651  2.9963     0.0013627  3.0004     3.        
 1.13n      21.f       19.124n   -0.40704    2.9141    -0.01498    2.9923     3.        
 1.14n      2.f       -17.735n    0.5343     3.1692     0.042958   3.0248     3.        
 1.15n     -3.f       -17.87n     1.3359     3.1487    -0.004148   2.987      3.        
 1.16n     -3.f       -18.048n    1.9187     2.7987    -0.060034   2.9795     3.        
 1.17n      0.        -18.207n    2.2628     2.1663    -0.12071    2.9776     3.        
 1.18n      0.         18.487n    2.4529     1.4159    -0.086254   3.0146     3.        
 1.19n      1.f       -18.297n    2.5819     0.75617    0.17333    3.104      3.        
 1.2n      -1.f        18.488n    2.7117     0.37349    0.69502    3.2132     3.        
 1.21n     -2.f       -18.317n    2.8274     0.21918    1.2838     3.0433     3.        
 1.22n     -2.f       -18.349n    2.8993     0.13802    1.7304     2.3696     3.        
122.7 IN ->0
 1.23n     -3.f       -18.363n    2.9388     0.075337   1.9629     1.1377     3.        
 1.24n     -2.f        18.407n    2.9686     0.062655   2.2211     0.23688    3.        
 1.25n     -1.f       -18.38n     2.9866     0.069408   2.548      0.050721   3.        
 1.26n      1.f        18.385n    2.9898     0.050173   2.7672     0.046515   3.        
 1.27n      2.f       -18.384n    2.9906     0.027479   2.8756     0.015018   3.        
 1.28n      4.f        18.389n    2.9926     0.015639   2.9376     0.011883   3.        
 1.29n      3.f       -18.382n    2.9936     0.0079157  2.9673     0.0040412  3.        
 1.3n       3.f        18.387n    2.9957     0.0044849  2.9838     0.0030582  3.        
 1.31n      4.f       -18.381n    2.9961     0.0021532  2.9915     0.0010785  3.        
 1.32n      6.f        18.383n    2.9969     0.0028274  2.9961     952.67u    3.        
132.7 OUT->1 IN=0
 1.33n      5.f       -18.38n     2.9975     712.98u    2.9976     63.645u    3.        
 1.34n      5.f        3.         3.1858     0.033583   3.0049     0.0032456  3.        
 1.35n      4.f        3.         1.863     -0.219      2.9468    -0.016924   3.        
 1.36n      11.f       3.         0.84      -0.064346   3.0129     0.015267   3.        
 1.37n      19.f       3.         0.35345    0.44749    3.1142     0.021062   3.        
 1.38n      17.f       3.         0.20266    1.124      3.1432    -0.0046323  3.        
 1.39n      12.f       3.         0.14347    1.7156     2.9043    -0.062023   3.        
 1.4n       13.f       3.         0.096736   2.1221     2.386     -0.12916    3.        
 1.41n      10.f       3.         0.059209   2.3611     1.6864    -0.11208    3.        
 1.42n      10.f       3.         0.037882   2.5175     1.0083     0.20747    3.        
 1.43n      14.f       3.         0.034014   2.6781     0.63886    1.2964     3.        
142.9 IN ->1
 1.44n      14.f       3.         0.026134   2.7933     0.41583    2.3973     3.        
 1.45n      15.f       3.         0.014579   2.8524     0.1974     2.8605     3.        
 1.46n      15.f       3.         0.010745   2.9015     0.066201   2.9478     3.        
 1.47n      15.f       3.         0.0090727  2.9448     0.026418   2.9855     3.        
 1.48n      18.f       3.         0.006854   2.9703     0.010596   2.9942     3.        
 1.49n      16.f       3.         0.0049182  2.9845     0.0049048  2.9979     3.        
 1.5n       17.f       3.         0.0032696  2.9919     0.0022846  2.999      3.        
 1.51n      14.f       3.         0.0022503  2.9959     0.0019287  2.9998     3.        
 1.52n      12.f       3.         0.0013128  2.9977     922.47u    2.9986     3.        
152.9 OUT->0 IN=1
 1.53n      13.f       3.         0.0014651  2.9963     0.0013627  3.0004     3.        
 1.54n      14.f       743.77p   -0.40704    2.9141    -0.01498    2.9923     3.        
 1.55n      1.f        646.14p    0.5343     3.1692     0.042958   3.0248     3.        
 1.56n     -2.f        510.49p    1.3359     3.1487    -0.004148   2.987      3.        
 1.57n     -1.f        332.97p    1.9187     2.7987    -0.060034   2.9795     3.        
 1.58n      1.f        174.18p    2.2628     2.1663    -0.12071    2.9776     3.        
 1.59n      0.         106.46p    2.4529     1.4159    -0.086254   3.0146     3.        
 1.6n       1.f        84.008p    2.5819     0.75617    0.17333    3.104      3.        
 1.61n     -1.f        107.53p    2.7117     0.37349    0.69502    3.2132     3.        
 1.62n     -3.f        63.358p    2.8274     0.21918    1.2838     3.0433     3.        
 1.63n     -5.f        32.063p    2.8993     0.13802    1.7304     2.3696     3.        
163.7 IN ->0
 1.64n     -8.f        17.829p    2.9388     0.075337   1.9629     1.1377     3.        
 1.65n     -9.f        26.112p    2.9686     0.062655   2.2211     0.23688    3.        
 1.66n     -8.f        554.f      2.9866     0.069408   2.548      0.050721   3.        
 1.67n     -9.f        4.128p     2.9898     0.050173   2.7672     0.046515   3.        
 1.68n     -10.f      -3.p        2.9906     0.027479   2.8756     0.015018   3.        
 1.69n     -9.f        8.299p     2.9926     0.015639   2.9376     0.011883   3.        
 1.7n      -11.f      -904.f      2.9936     0.0079157  2.9673     0.0040412  3.        
 1.71n     -11.f       6.691p     2.9957     0.0044849  2.9838     0.0030582  3.        
 1.72n     -9.f        40.f       2.9961     0.0021531  2.9915     0.0010785  3.        
 1.73n     -9.f        2.371p     2.9969     0.0028275  2.9961     952.68u    3.        
173.7 OUT->1 IN=0
 1.74n     -7.f        949.f      2.9975     712.97u    2.9976     63.64u     3.        
 1.75n     -5.f        3.         3.1858     0.033583   3.0049     0.0032456  3.        
 1.76n     -6.f        3.         1.863     -0.219      2.9468    -0.016924   3.        
 1.77n      1.f        3.         0.84      -0.064346   3.0129     0.015267   3.        
 1.78n      5.f        3.         0.35345    0.44749    3.1142     0.021062   3.        
 1.79n      5.f        3.         0.20266    1.124      3.1432    -0.0046323  3.        
 1.8n       5.f        3.         0.14347    1.7156     2.9043    -0.062023   3.        
 1.81n      5.f        3.         0.096736   2.1221     2.386     -0.12916    3.        
 1.82n      5.f        3.         0.059209   2.3611     1.6864    -0.11208    3.        
 1.83n      3.f        3.         0.037882   2.5175     1.0083     0.20747    3.        
 1.84n      6.f        3.         0.034014   2.6781     0.63886    1.2964     3.        
183.9 IN ->1
 1.85n      5.f        3.         0.026134   2.7933     0.41583    2.3973     3.        
 1.86n      7.f        3.         0.014579   2.8524     0.1974     2.8605     3.        
 1.87n      12.f       3.         0.010745   2.9015     0.066201   2.9478     3.        
 1.88n      11.f       3.         0.0090727  2.9448     0.026418   2.9855     3.        
 1.89n      9.f        3.         0.006854   2.9703     0.010596   2.9942     3.        
 1.9n       8.f        3.         0.0049182  2.9845     0.0049048  2.9979     3.        
 1.91n      8.f        3.         0.0032696  2.9919     0.0022846  2.999      3.        
 1.92n      4.f        3.         0.0022503  2.9959     0.0019288  2.9998     3.        
 1.93n      4.f        3.         0.0013128  2.9977     922.47u    2.9986     3.        
193.9 OUT->0 IN=1
 1.94n      4.f        3.         0.0014651  2.9963     0.0013627  3.0004     3.        
 1.95n      5.f        19.124n   -0.40704    2.9141    -0.01498    2.9923     3.        
 1.96n      2.f       -17.735n    0.5343     3.1692     0.042958   3.0248     3.        
 1.97n     -4.f       -17.87n     1.3359     3.1487    -0.004148   2.987      3.        
 1.98n     -5.f       -18.048n    1.9187     2.7987    -0.060034   2.9795     3.        
 1.99n     -2.f       -18.207n    2.2628     2.1663    -0.12071    2.9776     3.        
 2.n       -3.f        18.487n    2.4529     1.4159    -0.086254   3.0146     3.        
 2.01n     -5.f       -18.297n    2.5819     0.75617    0.17333    3.104      3.        
 2.02n     -5.f        18.488n    2.7117     0.37349    0.69502    3.2132     3.        
 2.03n     -8.f       -18.317n    2.8274     0.21918    1.2838     3.0433     3.        
 2.04n     -10.f      -18.349n    2.8993     0.13802    1.7304     2.3696     3.        
204.7 IN ->0
 2.05n     -11.f      -18.363n    2.9388     0.075337   1.9629     1.1377     3.        
 2.06n     -10.f       18.407n    2.9686     0.062655   2.2211     0.23688    3.        
 2.07n     -10.f      -18.38n     2.9866     0.069408   2.548      0.050721   3.        
 2.08n     -9.f        18.385n    2.9898     0.050173   2.7672     0.046515   3.        
 2.09n     -9.f       -18.384n    2.9906     0.027479   2.8756     0.015018   3.        
 2.1n      -9.f        18.389n    2.9926     0.015639   2.9376     0.011883   3.        
 2.11n     -8.f       -18.382n    2.9936     0.0079157  2.9673     0.0040412  3.        
 2.12n     -9.f        18.387n    2.9957     0.0044849  2.9838     0.0030582  3.        
 2.13n     -7.f       -18.381n    2.9961     0.0021532  2.9915     0.0010785  3.        
